
T177C 000:323 SEGGER J-Link V5.12 Log File (0000ms, 0278ms total)
T177C 000:323 DLL Compiled: Mar 30 2016 17:28:31 (0001ms, 0279ms total)
T177C 000:323 Logging started @ 2018-05-19 10:44 (0001ms, 0279ms total)
T177C 000:324 JLINK_SetWarnOutHandler(...) (0000ms, 0279ms total)
T177C 000:324 JLINK_OpenEx(...)
Firmware: J-Link ARM-OB STM32 compiled Aug 22 2012 19:52:04
Hardware: V7.00
S/N: 20090928
Feature(s): RDI,FlashDL,FlashBP,JFlash,GDBFull  returns O.K. (0278ms, 0557ms total)
T177C 000:602 JLINK_SetErrorOutHandler(...) (0000ms, 0557ms total)
T177C 000:602 JLINK_ExecCommand("ProjectFile = "C:\Users\Administrator\Desktop\ÐÅÑöÐÜÖÇÄÜÐ¬¹ñ\belief_bear_fw\bsp\stm32f10x_ClassA\JLinkSettings.ini"", ...)  returns 0x00 (0001ms, 0558ms total)
T177C 000:603 JLINK_ExecCommand("Device = STM32F103C8", ...)Device "STM32F103C8" selected.  returns 0x00 (0001ms, 0559ms total)
T177C 000:604 JLINK_ExecCommand("DisableConnectionTimeout", ...)  returns 0x01 (0000ms, 0559ms total)
T177C 000:604 JLINK_GetHardwareVersion()  returns 0x11170 (0000ms, 0559ms total)
T177C 000:604 JLINK_GetDLLVersion()  returns 51200 (0000ms, 0559ms total)
T177C 000:604 JLINK_GetFirmwareString(...) (0000ms, 0559ms total)
T177C 000:604 JLINK_GetDLLVersion()  returns 51200 (0000ms, 0559ms total)
T177C 000:604 JLINK_GetCompileDateTime() (0000ms, 0559ms total)
T177C 000:604 JLINK_GetFirmwareString(...) (0000ms, 0559ms total)
T177C 000:604 JLINK_GetHardwareVersion()  returns 0x11170 (0000ms, 0559ms total)
T177C 000:604 JLINK_TIF_Select(JLINKARM_TIF_SWD)  returns 0x00 (0003ms, 0562ms total)
T177C 000:607 JLINK_SetSpeed(50000) (0001ms, 0563ms total)
T177C 000:608 JLINK_GetId() >0x108 TIF>Found SWD-DP with ID 0x1BA01477 >0x0D TIF> >0x28 TIF> >0x0D TIF> >0x28 TIF> >0x0D TIF> >0x28 TIF> >0x0D TIF> >0x28 TIF> >0x0D TIF> >0x21 TIF> >0x0D TIF> >0x28 TIF> >0x0D TIF> >0x28 TIF> >0x0D TIF> >0x28 TIF> >0x0D TIF> >0x21 TIF> >0x0D TIF> >0x21 TIF> >0x0D TIF> >0x28 TIF> >0x0D TIF> >0x21 TIF> >0x0D TIF> >0x21 TIF> >0x0D TIF> >0x28 TIF> >0x0D TIF> >0x21 TIF> >0x0D TIF> >0x21 TIF> >0x0D TIF> >0x28 TIF> >0x0D TIF> >0x21 TIF> >0x0D TIF> >0x21 TIF> >0x0D TIF>
 >0x28 TIF> >0x0D TIF> >0x21 TIF> >0x0D TIF> >0x21 TIF> >0x0D TIF> >0x28 TIF> >0x0D TIF> >0x21 TIF> >0x0D TIF> >0x21 TIF> >0x108 TIF>Found SWD-DP with ID 0x1BA01477 >0x0D TIF> >0x28 TIF> >0x0D TIF> >0x28 TIF> >0x0D TIF> >0x28 TIF> >0x0D TIF> >0x28 TIF> >0x0D TIF> >0x21 TIF> >0x0D TIF> >0x28 TIF> >0x0D TIF> >0x28 TIF> >0x0D TIF> >0x21 TIF> >0x0D TIF> >0x21 TIF> >0x0D TIF> >0x21 TIF> >0x0D TIF> >0x28 TIF> >0x0D TIF> >0x28 TIF> >0x0D TIF> >0x28 TIF> >0x0D TIF> >0x21 TIF> >0x0D TIF> >0x21 TIF> >0x0D TIF>
 >0x28 TIF> >0x0D TIF> >0x21 TIF> >0x0D TIF> >0x21 TIF>Found Cortex-M3 r1p1, Little endian. -- CPU_ReadMem(4 bytes @ 0xE000EDF0) -- CPU_ReadMem(4 bytes @ 0xE0002000)FPUnit: 6 code (BP) slots and 2 literal slots -- CPU_ReadMem(4 bytes @ 0xE000EDFC) -- CPU_ReadMem(4 bytes @ 0xE0001000) -- CPU_WriteMem(4 bytes @ 0xE0001000) -- CPU_ReadMem(4 bytes @ 0xE000ED88) -- CPU_WriteMem(4 bytes @ 0xE000ED88) -- CPU_ReadMem(4 bytes @ 0xE000ED88) -- CPU_WriteMem(4 bytes @ 0xE000ED88)CoreSight components:
ROMTbl 0 @ E00FF000 -- CPU_ReadMem(16 bytes @ 0xE00FF000) -- CPU_ReadMem(16 bytes @ 0xE000EFF0) -- CPU_ReadMem(16 bytes @ 0xE000EFE0)ROMTbl 0 [0]: FFF0F000, CID: B105E00D, PID: 001BB000 SCS -- CPU_ReadMem(16 bytes @ 0xE0001FF0) -- CPU_ReadMem(16 bytes @ 0xE0001FE0)ROMTbl 0 [1]: FFF02000, CID: B105E00D, PID: 001BB002 DWT -- CPU_ReadMem(16 bytes @ 0xE0002FF0) -- CPU_ReadMem(16 bytes @ 0xE0002FE0)ROMTbl 0 [2]: FFF03000, CID: B105E00D, PID: 000BB003 FPB -- CPU_ReadMem(16 bytes @ 0xE0000FF0)
 -- CPU_ReadMem(16 bytes @ 0xE0000FE0)ROMTbl 0 [3]: FFF01000, CID: B105E00D, PID: 001BB001 ITM -- CPU_ReadMem(16 bytes @ 0xE00FF010) -- CPU_ReadMem(16 bytes @ 0xE0040FF0) -- CPU_ReadMem(16 bytes @ 0xE0040FE0)ROMTbl 0 [4]: FFF41000, CID: B105900D, PID: 001BB923 TPIU-Lite >0x0D TIF> >0x21 TIF>  returns 0x1BA01477 (0126ms, 0689ms total)
T177C 000:734 JLINK_GetDLLVersion()  returns 51200 (0000ms, 0689ms total)
T177C 000:734 JLINK_CORE_GetFound()  returns 0x30000FF (0000ms, 0689ms total)
T177C 000:734 JLINK_GetDebugInfo(0x100) -- Value=0xE00FF000  returns 0x00 (0000ms, 0689ms total)
T177C 000:734 JLINK_GetDebugInfo(0x100) -- Value=0xE00FF000  returns 0x00 (0000ms, 0689ms total)
T177C 000:734 JLINK_GetDebugInfo(0x101) -- Value=0x00000000  returns 0x00 (0000ms, 0689ms total)
T177C 000:734 JLINK_ReadMem (0xE0041FF0, 0x0010 Bytes, ...) -- CPU is running -- CPU_ReadMem(16 bytes @ 0xE0041FF0) - Data: 00 00 00 00 00 00 00 00 00 00 00 00 00 00 00 00  returns 0x00 (0002ms, 0691ms total)
T177C 000:736 JLINK_GetDebugInfo(0x102) -- Value=0x00000000  returns 0x00 (0000ms, 0691ms total)
T177C 000:736 JLINK_GetDebugInfo(0x103) -- Value=0xE0040000  returns 0x00 (0000ms, 0691ms total)
T177C 000:736 JLINK_GetDebugInfo(0x104) -- Value=0xE0000000  returns 0x00 (0000ms, 0691ms total)
T177C 000:736 JLINK_GetDebugInfo(0x105) -- Value=0xE0001000  returns 0x00 (0000ms, 0691ms total)
T177C 000:736 JLINK_GetDebugInfo(0x106) -- Value=0xE0002000  returns 0x00 (0000ms, 0691ms total)
T177C 000:736 JLINK_GetDebugInfo(0x107) -- Value=0xE000E000  returns 0x00 (0000ms, 0691ms total)
T177C 000:736 JLINK_GetDebugInfo(0x10C) -- Value=0xE000EDF0  returns 0x00 (0000ms, 0691ms total)
T177C 000:736 JLINK_ReadMemU32(0xE000ED00, 0x0001 Items, ...) -- CPU is running -- CPU_ReadMem(4 bytes @ 0xE000ED00) - Data: 31 C2 1F 41  returns 0x01 (0001ms, 0692ms total)
T177C 000:737 JLINK_SetResetType(JLINKARM_RESET_TYPE_NORMAL)  returns JLINKARM_RESET_TYPE_NORMAL (0000ms, 0692ms total)
T177C 000:737 JLINK_Reset() -- CPU is running -- CPU_WriteMem(4 bytes @ 0xE000EDF0) -- CPU is running -- CPU_WriteMem(4 bytes @ 0xE000EDFC) >0x35 TIF> -- CPU is running -- CPU_WriteMem(4 bytes @ 0xE000ED0C) -- CPU is running -- CPU_ReadMem(4 bytes @ 0xE000EDF0) -- CPU is running -- CPU_ReadMem(4 bytes @ 0xE000EDF0) -- CPU is running -- CPU_WriteMem(4 bytes @ 0xE000EDF0) -- CPU is running -- CPU_WriteMem(4 bytes @ 0xE000EDFC) -- CPU is running -- CPU_ReadMem(4 bytes @ 0xE000EDF0)
 -- CPU_WriteMem(4 bytes @ 0xE0002000) -- CPU_ReadMem(4 bytes @ 0xE000EDFC) -- CPU_ReadMem(4 bytes @ 0xE0001000) (0024ms, 0716ms total)
T177C 000:761 JLINK_ReadReg(R15 (PC))  returns 0x08000144 (0000ms, 0716ms total)
T177C 000:761 JLINK_ReadReg(XPSR)  returns 0x01000000 (0000ms, 0716ms total)
T177C 000:761 JLINK_Halt()  returns 0x00 (0000ms, 0716ms total)
T177C 000:761 JLINK_IsHalted()  returns TRUE (0000ms, 0716ms total)
T177C 000:761 JLINK_ReadMemU32(0xE000EDF0, 0x0001 Items, ...) -- CPU_ReadMem(4 bytes @ 0xE000EDF0) - Data: 03 00 03 00  returns 0x01 (0001ms, 0717ms total)
T177C 000:762 JLINK_WriteU32(0xE000EDF0, 0xA05F0003) -- CPU_WriteMem(4 bytes @ 0xE000EDF0)  returns 0x00 (0001ms, 0718ms total)
T177C 000:763 JLINK_WriteU32(0xE000EDFC, 0x01000000) -- CPU_WriteMem(4 bytes @ 0xE000EDFC)  returns 0x00 (0001ms, 0719ms total)
T177C 000:764 JLINK_GetHWStatus(...)  returns 0x00 (0001ms, 0720ms total)
T177C 000:765 JLINK_GetNumBPUnits(Type = 0xFFFFFF00)  returns 0x06 (0000ms, 0720ms total)
T177C 000:765 JLINK_GetNumBPUnits(Type = 0xF0)  returns 0x2000 (0000ms, 0720ms total)
T177C 000:765 JLINK_GetNumWPUnits()  returns 0x04 (0000ms, 0720ms total)
T177C 000:765 JLINK_GetSpeed()  returns 0xFA0 (0000ms, 0720ms total)
T177C 000:765 JLINK_ReadMemU32(0xE000E004, 0x0001 Items, ...) -- CPU_ReadMem(4 bytes @ 0xE000E004) - Data: 01 00 00 00  returns 0x01 (0001ms, 0721ms total)
T177C 000:766 JLINK_ReadMemU32(0xE000E004, 0x0001 Items, ...) -- CPU_ReadMem(4 bytes @ 0xE000E004) - Data: 01 00 00 00  returns 0x01 (0001ms, 0722ms total)
T177C 000:767 JLINK_WriteMem(0xE0001000, 0x001C Bytes, ...) - Data: 01 00 00 00 00 00 00 00 00 00 00 00 00 00 00 00 ... -- CPU_WriteMem(28 bytes @ 0xE0001000)  returns 0x1C (0002ms, 0724ms total)
T177C 000:769 JLINK_ReadMem (0xE0001000, 0x001C Bytes, ...) -- CPU_ReadMem(28 bytes @ 0xE0001000) - Data: 01 00 00 40 00 00 00 00 00 00 00 00 00 00 00 00 ...  returns 0x00 (0001ms, 0725ms total)
T177C 000:770 JLINK_ReadReg(R15 (PC))  returns 0x08000144 (0000ms, 0725ms total)
T177C 000:770 JLINK_ReadReg(XPSR)  returns 0x01000000 (0000ms, 0725ms total)
T177C 000:845 JLINK_SetResetType(JLINKARM_RESET_TYPE_NORMAL)  returns JLINKARM_RESET_TYPE_NORMAL (0000ms, 0725ms total)
T177C 000:845 JLINK_Reset() -- CPU_WriteMem(4 bytes @ 0xE000EDF0) -- CPU_WriteMem(4 bytes @ 0xE000EDFC) >0x35 TIF> -- CPU_WriteMem(4 bytes @ 0xE000ED0C) -- CPU_ReadMem(4 bytes @ 0xE000EDF0) -- CPU_ReadMem(4 bytes @ 0xE000EDF0) -- CPU_WriteMem(4 bytes @ 0xE000EDF0) -- CPU_WriteMem(4 bytes @ 0xE000EDFC) -- CPU is running -- CPU_ReadMem(4 bytes @ 0xE000EDF0) -- CPU_WriteMem(4 bytes @ 0xE0002000) -- CPU_ReadMem(4 bytes @ 0xE000EDFC) -- CPU_ReadMem(4 bytes @ 0xE0001000) (0024ms, 0749ms total)
T177C 000:869 JLINK_ReadReg(R15 (PC))  returns 0x08000144 (0000ms, 0749ms total)
T177C 000:869 JLINK_ReadReg(XPSR)  returns 0x01000000 (0000ms, 0749ms total)
T177C 000:869 JLINK_ReadMem (0x08000130, 0x003C Bytes, ...) -- CPU_ReadMem(128 bytes @ 0x08000100) -- Updating C cache (128 bytes @ 0x08000100) -- Read from C cache (60 bytes @ 0x08000130) - Data: DF F8 0C D0 00 F0 8E F8 00 48 00 47 B5 0D 00 08 ...  returns 0x00 (0002ms, 0751ms total)
T177C 001:365 JLINK_ReadMem (0x2000047C, 0x0339 Bytes, ...) -- CPU_ReadMem(896 bytes @ 0x20000440) -- Updating C cache (896 bytes @ 0x20000440) -- Read from C cache (825 bytes @ 0x2000047C) - Data: FF FF FF FF FF FF FF FF FF FF FF FF FF FF FF FF ...  returns 0x00 (0009ms, 0760ms total)
T0434 001:589 JLINK_SetBPEx(Addr = 0x08000DB4, Type = 0xFFFFFFF2)  returns 0x00000001 (0001ms, 0761ms total)
T0434 001:590 JLINK_SetBPEx(Addr = 0x08002A7A, Type = 0xFFFFFFF2)  returns 0x00000002 (0000ms, 0761ms total)
T0434 001:590 JLINK_SetBPEx(Addr = 0x08000BF0, Type = 0xFFFFFFF2)  returns 0x00000003 (0000ms, 0761ms total)
T0434 001:590 JLINK_SetBPEx(Addr = 0x08000CD8, Type = 0xFFFFFFF2)  returns 0x00000004 (0000ms, 0761ms total)
T0434 001:590 JLINK_SetBPEx(Addr = 0x08000DE8, Type = 0xFFFFFFF2)  returns 0x00000005 (0000ms, 0761ms total)
T0434 001:590 JLINK_Go() -- CPU_WriteMem(4 bytes @ 0xE0002000) -- CPU_WriteMem(4 bytes @ 0xE0002000) -- CPU_WriteMem(4 bytes @ 0xE0002000) -- CPU_WriteMem(4 bytes @ 0xE0002000) -- CPU_WriteMem(4 bytes @ 0xE0002000) -- CPU_ReadMem(4 bytes @ 0xE0001000) -- CPU_WriteMem(4 bytes @ 0xE0002008) -- CPU_WriteMem(4 bytes @ 0xE000200C) -- CPU_WriteMem(4 bytes @ 0xE0002010) -- CPU_WriteMem(4 bytes @ 0xE0002014) -- CPU_WriteMem(4 bytes @ 0xE0002018) -- CPU_WriteMem(4 bytes @ 0xE000201C)
 -- CPU_WriteMem(4 bytes @ 0xE0001004) (0014ms, 0775ms total)
T0434 001:704 JLINK_IsHalted()  returns TRUE (0003ms, 0778ms total)
T0434 001:707 JLINK_Halt()  returns 0x00 (0001ms, 0776ms total)
T0434 001:708 JLINK_IsHalted()  returns TRUE (0000ms, 0776ms total)
T0434 001:708 JLINK_IsHalted()  returns TRUE (0000ms, 0776ms total)
T0434 001:708 JLINK_IsHalted()  returns TRUE (0000ms, 0776ms total)
T0434 001:708 JLINK_ReadReg(R15 (PC))  returns 0x08000DB4 (0000ms, 0776ms total)
T0434 001:708 JLINK_ReadReg(XPSR)  returns 0x61000000 (0000ms, 0776ms total)
T0434 001:708 JLINK_ClrBPEx(BPHandle = 0x00000001)  returns 0x00 (0000ms, 0776ms total)
T0434 001:708 JLINK_ClrBPEx(BPHandle = 0x00000002)  returns 0x00 (0000ms, 0776ms total)
T0434 001:708 JLINK_ClrBPEx(BPHandle = 0x00000003)  returns 0x00 (0000ms, 0776ms total)
T0434 001:708 JLINK_ClrBPEx(BPHandle = 0x00000004)  returns 0x00 (0000ms, 0776ms total)
T0434 001:708 JLINK_ClrBPEx(BPHandle = 0x00000005)  returns 0x00 (0000ms, 0776ms total)
T0434 001:708 JLINK_ReadMemU32(0xE000ED30, 0x0001 Items, ...) -- CPU_ReadMem(4 bytes @ 0xE000ED30) - Data: 03 00 00 00  returns 0x01 (0000ms, 0776ms total)
T0434 001:708 JLINK_ReadMemU32(0xE0001028, 0x0001 Items, ...) -- CPU_ReadMem(4 bytes @ 0xE0001028) - Data: 00 00 00 00  returns 0x01 (0001ms, 0777ms total)
T0434 001:709 JLINK_ReadMemU32(0xE0001038, 0x0001 Items, ...) -- CPU_ReadMem(4 bytes @ 0xE0001038) - Data: 00 02 00 00  returns 0x01 (0001ms, 0778ms total)
T0434 001:710 JLINK_ReadMemU32(0xE0001048, 0x0001 Items, ...) -- CPU_ReadMem(4 bytes @ 0xE0001048) - Data: 00 00 00 00  returns 0x01 (0001ms, 0779ms total)
T0434 001:711 JLINK_ReadMemU32(0xE0001058, 0x0001 Items, ...) -- CPU_ReadMem(4 bytes @ 0xE0001058) - Data: 00 00 00 00  returns 0x01 (0001ms, 0780ms total)
T0434 001:713 JLINK_ReadReg(R0)  returns 0x08000DB5 (0000ms, 0781ms total)
T0434 001:713 JLINK_ReadReg(R1)  returns 0x20000890 (0000ms, 0781ms total)
T0434 001:713 JLINK_ReadReg(R2)  returns 0x00000000 (0000ms, 0781ms total)
T0434 001:713 JLINK_ReadReg(R3)  returns 0x08000ABD (0000ms, 0781ms total)
T0434 001:713 JLINK_ReadReg(R4)  returns 0x08002F04 (0000ms, 0781ms total)
T0434 001:713 JLINK_ReadReg(R5)  returns 0x08002F04 (0000ms, 0781ms total)
T0434 001:713 JLINK_ReadReg(R6)  returns 0x00000000 (0000ms, 0781ms total)
T0434 001:713 JLINK_ReadReg(R7)  returns 0x00000000 (0000ms, 0781ms total)
T0434 001:713 JLINK_ReadReg(R8)  returns 0x00000000 (0000ms, 0781ms total)
T0434 001:713 JLINK_ReadReg(R9)  returns 0x20000160 (0000ms, 0781ms total)
T0434 001:713 JLINK_ReadReg(R10)  returns 0x00000000 (0000ms, 0781ms total)
T0434 001:713 JLINK_ReadReg(R11)  returns 0x00000000 (0000ms, 0781ms total)
T0434 001:713 JLINK_ReadReg(R12)  returns 0x00000000 (0000ms, 0781ms total)
T0434 001:713 JLINK_ReadReg(R13 (SP))  returns 0x20000890 (0000ms, 0781ms total)
T0434 001:713 JLINK_ReadReg(R14)  returns 0x08000271 (0000ms, 0781ms total)
T0434 001:713 JLINK_ReadReg(R15 (PC))  returns 0x08000DB4 (0000ms, 0781ms total)
T0434 001:713 JLINK_ReadReg(XPSR)  returns 0x61000000 (0000ms, 0781ms total)
T0434 001:713 JLINK_ReadReg(MSP)  returns 0x20000890 (0000ms, 0781ms total)
T0434 001:713 JLINK_ReadReg(PSP)  returns 0x20001000 (0000ms, 0781ms total)
T0434 001:713 JLINK_ReadReg(CFBP)  returns 0x00000000 (0000ms, 0781ms total)
T177C 001:714 JLINK_ReadMem (0x2000047C, 0x0339 Bytes, ...) -- CPU_ReadMem(896 bytes @ 0x20000440) -- Updating C cache (896 bytes @ 0x20000440) -- Read from C cache (825 bytes @ 0x2000047C) - Data: 00 00 00 00 00 00 00 00 00 00 00 00 00 00 00 00 ...  returns 0x00 (0010ms, 0791ms total)
T177C 001:729 JLINK_ReadMem (0x08000CB4, 0x003C Bytes, ...) -- CPU_ReadMem(128 bytes @ 0x08000C80) -- Updating C cache (128 bytes @ 0x08000C80) -- Read from C cache (60 bytes @ 0x08000CB4) - Data: 08 46 00 78 20 F0 01 00 08 70 00 20 00 F0 50 F8 ...  returns 0x00 (0002ms, 0793ms total)
T177C 001:731 JLINK_ReadMem (0x08000CF0, 0x003C Bytes, ...) -- CPU_ReadMem(64 bytes @ 0x08000D00) -- Updating C cache (64 bytes @ 0x08000D00) -- Read from C cache (60 bytes @ 0x08000CF0) - Data: 0A 20 01 F0 9A FA 00 F0 43 F8 00 28 E6 D1 00 BF ...  returns 0x00 (0002ms, 0795ms total)
T177C 001:733 JLINK_ReadMem (0x08000D2C, 0x003C Bytes, ...) -- CPU_ReadMem(64 bytes @ 0x08000D40) -- Updating C cache (64 bytes @ 0x08000D40) -- Read from C cache (60 bytes @ 0x08000D2C) - Data: FF F7 EE FA 07 48 41 78 0C 20 FF F7 E9 FA 06 48 ...  returns 0x00 (0002ms, 0797ms total)
T177C 001:735 JLINK_ReadMem (0x08000D68, 0x003C Bytes, ...) -- CPU_ReadMem(64 bytes @ 0x08000D80) -- Updating C cache (64 bytes @ 0x08000D80) -- Read from C cache (60 bytes @ 0x08000D68) - Data: 01 2C 04 D1 01 21 08 46 FF F7 FA FC 03 E0 00 21 ...  returns 0x00 (0002ms, 0799ms total)
T177C 001:737 JLINK_ReadMem (0x08000DA4, 0x003C Bytes, ...) -- CPU_ReadMem(64 bytes @ 0x08000DC0) -- Updating C cache (64 bytes @ 0x08000DC0) -- Read from C cache (60 bytes @ 0x08000DA4) - Data: 10 BD 00 20 FC E7 00 20 FA E7 00 00 00 0C 01 40 ...  returns 0x00 (0002ms, 0801ms total)
T0434 002:637 JLINK_SetBPEx(Addr = 0x08002A7A, Type = 0xFFFFFFF2)  returns 0x00000006 (0001ms, 0802ms total)
T0434 002:638 JLINK_SetBPEx(Addr = 0x08000BF0, Type = 0xFFFFFFF2)  returns 0x00000007 (0000ms, 0802ms total)
T0434 002:638 JLINK_SetBPEx(Addr = 0x08000CD8, Type = 0xFFFFFFF2)  returns 0x00000008 (0000ms, 0802ms total)
T0434 002:638 JLINK_SetBPEx(Addr = 0x08000DE8, Type = 0xFFFFFFF2)  returns 0x00000009 (0000ms, 0802ms total)
T0434 002:638 JLINK_Go() -- CPU_WriteMem(4 bytes @ 0xE0002000) -- CPU_WriteMem(4 bytes @ 0xE0002000) -- CPU_WriteMem(4 bytes @ 0xE0002000) -- CPU_WriteMem(4 bytes @ 0xE0002000) -- CPU_ReadMem(4 bytes @ 0xE0001000) -- CPU_WriteMem(4 bytes @ 0xE0002008) -- CPU_WriteMem(4 bytes @ 0xE000200C) -- CPU_WriteMem(4 bytes @ 0xE0002010) -- CPU_WriteMem(4 bytes @ 0xE0002014) -- CPU_WriteMem(4 bytes @ 0xE0002018) (0012ms, 0814ms total)
T0434 002:750 JLINK_IsHalted()  returns TRUE (0003ms, 0817ms total)
T0434 002:753 JLINK_Halt()  returns 0x00 (0000ms, 0814ms total)
T0434 002:753 JLINK_IsHalted()  returns TRUE (0000ms, 0814ms total)
T0434 002:753 JLINK_IsHalted()  returns TRUE (0000ms, 0814ms total)
T0434 002:753 JLINK_IsHalted()  returns TRUE (0000ms, 0814ms total)
T0434 002:754 JLINK_ReadReg(R15 (PC))  returns 0x08002A7A (0000ms, 0814ms total)
T0434 002:754 JLINK_ReadReg(XPSR)  returns 0x61000000 (0000ms, 0814ms total)
T0434 002:754 JLINK_ClrBPEx(BPHandle = 0x00000006)  returns 0x00 (0000ms, 0814ms total)
T0434 002:754 JLINK_ClrBPEx(BPHandle = 0x00000007)  returns 0x00 (0000ms, 0814ms total)
T0434 002:754 JLINK_ClrBPEx(BPHandle = 0x00000008)  returns 0x00 (0000ms, 0814ms total)
T0434 002:754 JLINK_ClrBPEx(BPHandle = 0x00000009)  returns 0x00 (0000ms, 0814ms total)
T0434 002:754 JLINK_ReadMemU32(0xE000ED30, 0x0001 Items, ...) -- CPU_ReadMem(4 bytes @ 0xE000ED30) - Data: 03 00 00 00  returns 0x01 (0000ms, 0814ms total)
T0434 002:754 JLINK_ReadMemU32(0xE0001028, 0x0001 Items, ...) -- CPU_ReadMem(4 bytes @ 0xE0001028) - Data: 00 00 00 00  returns 0x01 (0001ms, 0815ms total)
T0434 002:755 JLINK_ReadMemU32(0xE0001038, 0x0001 Items, ...) -- CPU_ReadMem(4 bytes @ 0xE0001038) - Data: 00 02 00 00  returns 0x01 (0001ms, 0816ms total)
T0434 002:756 JLINK_ReadMemU32(0xE0001048, 0x0001 Items, ...) -- CPU_ReadMem(4 bytes @ 0xE0001048) - Data: 00 00 00 00  returns 0x01 (0001ms, 0817ms total)
T0434 002:757 JLINK_ReadMemU32(0xE0001058, 0x0001 Items, ...) -- CPU_ReadMem(4 bytes @ 0xE0001058) - Data: 00 00 00 00  returns 0x01 (0001ms, 0818ms total)
T0434 002:758 JLINK_ReadReg(R0)  returns 0x00000008 (0000ms, 0818ms total)
T0434 002:758 JLINK_ReadReg(R1)  returns 0x20000868 (0001ms, 0819ms total)
T0434 002:759 JLINK_ReadReg(R2)  returns 0x40010800 (0000ms, 0819ms total)
T0434 002:759 JLINK_ReadReg(R3)  returns 0x28038000 (0000ms, 0819ms total)
T0434 002:759 JLINK_ReadReg(R4)  returns 0x0000000B (0000ms, 0819ms total)
T0434 002:759 JLINK_ReadReg(R5)  returns 0x000000F0 (0000ms, 0819ms total)
T0434 002:759 JLINK_ReadReg(R6)  returns 0x00000000 (0000ms, 0819ms total)
T0434 002:759 JLINK_ReadReg(R7)  returns 0x00000000 (0000ms, 0819ms total)
T0434 002:759 JLINK_ReadReg(R8)  returns 0x00000000 (0000ms, 0819ms total)
T0434 002:759 JLINK_ReadReg(R9)  returns 0x20000160 (0000ms, 0819ms total)
T0434 002:759 JLINK_ReadReg(R10)  returns 0x00000000 (0000ms, 0819ms total)
T0434 002:759 JLINK_ReadReg(R11)  returns 0x00000000 (0000ms, 0819ms total)
T0434 002:759 JLINK_ReadReg(R12)  returns 0x00000028 (0000ms, 0819ms total)
T0434 002:759 JLINK_ReadReg(R13 (SP))  returns 0x20000860 (0000ms, 0819ms total)
T0434 002:759 JLINK_ReadReg(R14)  returns 0x08001303 (0000ms, 0819ms total)
T0434 002:759 JLINK_ReadReg(R15 (PC))  returns 0x08002A7A (0000ms, 0819ms total)
T0434 002:759 JLINK_ReadReg(XPSR)  returns 0x61000000 (0000ms, 0819ms total)
T0434 002:759 JLINK_ReadReg(MSP)  returns 0x20000860 (0000ms, 0819ms total)
T0434 002:759 JLINK_ReadReg(PSP)  returns 0x20001000 (0000ms, 0819ms total)
T0434 002:759 JLINK_ReadReg(CFBP)  returns 0x00000001 (0000ms, 0819ms total)
T177C 002:759 JLINK_ReadMem (0x2000086C, 0x0004 Bytes, ...) -- CPU_ReadMem(64 bytes @ 0x20000840) -- Updating C cache (64 bytes @ 0x20000840) -- Read from C cache (4 bytes @ 0x2000086C) - Data: 03 13 00 08  returns 0x00 (0001ms, 0820ms total)
T177C 002:761 JLINK_ReadMem (0x20000868, 0x0004 Bytes, ...) -- Read from C cache (4 bytes @ 0x20000868) - Data: 0B 00 00 00  returns 0x00 (0000ms, 0820ms total)
T177C 002:761 JLINK_ReadMem (0x2000087C, 0x0004 Bytes, ...) -- Read from C cache (4 bytes @ 0x2000087C) - Data: 17 2D 00 08  returns 0x00 (0000ms, 0820ms total)
T177C 002:761 JLINK_ReadMem (0x20000870, 0x0004 Bytes, ...) -- Read from C cache (4 bytes @ 0x20000870) - Data: 04 2F 00 08  returns 0x00 (0000ms, 0820ms total)
T177C 002:761 JLINK_ReadMem (0x20000874, 0x0004 Bytes, ...) -- Read from C cache (4 bytes @ 0x20000874) - Data: 04 2F 00 08  returns 0x00 (0000ms, 0820ms total)
T177C 002:761 JLINK_ReadMem (0x20000878, 0x0004 Bytes, ...) -- Read from C cache (4 bytes @ 0x20000878) - Data: 00 00 00 00  returns 0x00 (0000ms, 0820ms total)
T177C 002:761 JLINK_ReadMem (0x20000884, 0x0004 Bytes, ...) -- CPU_ReadMem(64 bytes @ 0x20000880) -- Updating C cache (64 bytes @ 0x20000880) -- Read from C cache (4 bytes @ 0x20000884) - Data: BF 0D 00 08  returns 0x00 (0001ms, 0821ms total)
T177C 002:762 JLINK_ReadMem (0x20000880, 0x0004 Bytes, ...) -- Read from C cache (4 bytes @ 0x20000880) - Data: 04 2F 00 08  returns 0x00 (0000ms, 0821ms total)
T177C 002:762 JLINK_ReadMem (0x2000088C, 0x0004 Bytes, ...) -- Read from C cache (4 bytes @ 0x2000088C) - Data: 71 02 00 08  returns 0x00 (0001ms, 0822ms total)
T177C 002:764 JLINK_ReadMem (0x2000047C, 0x0339 Bytes, ...) -- CPU_ReadMem(896 bytes @ 0x20000440) -- Updating C cache (896 bytes @ 0x20000440) -- Read from C cache (825 bytes @ 0x2000047C) - Data: 00 00 00 00 00 00 00 00 00 00 00 00 00 00 00 00 ...  returns 0x00 (0009ms, 0831ms total)
T177C 002:779 JLINK_ReadMem (0x08002A78, 0x003C Bytes, ...) -- CPU_ReadMem(128 bytes @ 0x08002A40) -- Updating C cache (128 bytes @ 0x08002A40) -- Read from C cache (60 bytes @ 0x08002A78) - Data: 1C B5 04 20 FD F7 38 FC 45 F2 55 51 88 42 0C D1 ...  returns 0x00 (0002ms, 0833ms total)
T0434 003:492 JLINK_Step() -- Read from C cache (2 bytes @ 0x08002A7A) -- CPU_ReadMem(4 bytes @ 0xE000ED18) -- CPU_WriteMem(4 bytes @ 0xE000ED18) -- CPU_ReadMem(4 bytes @ 0xE000ED18) -- CPU_WriteMem(4 bytes @ 0xE000ED18) -- CPU_ReadMem(4 bytes @ 0xE0001004) -- Simulated  returns 0x00 (0007ms, 0840ms total)
T0434 003:499 JLINK_ReadReg(R15 (PC))  returns 0x08002A7C (0000ms, 0840ms total)
T0434 003:499 JLINK_ReadReg(XPSR)  returns 0x21000000 (0000ms, 0840ms total)
T0434 003:499 JLINK_SetBPEx(Addr = 0x08002A7A, Type = 0xFFFFFFF2)  returns 0x0000000A (0000ms, 0840ms total)
T0434 003:499 JLINK_SetBPEx(Addr = 0x08000BF0, Type = 0xFFFFFFF2)  returns 0x0000000B (0000ms, 0840ms total)
T0434 003:499 JLINK_SetBPEx(Addr = 0x08000CD8, Type = 0xFFFFFFF2)  returns 0x0000000C (0000ms, 0840ms total)
T0434 003:499 JLINK_SetBPEx(Addr = 0x08000DE8, Type = 0xFFFFFFF2)  returns 0x0000000D (0000ms, 0840ms total)
T0434 003:499 JLINK_Go() -- CPU_WriteMem(4 bytes @ 0xE0002000) -- CPU_WriteMem(4 bytes @ 0xE0002000) -- CPU_WriteMem(4 bytes @ 0xE0002000) -- CPU_WriteMem(4 bytes @ 0xE0002000) -- CPU_ReadMem(4 bytes @ 0xE0001000) -- CPU_WriteMem(4 bytes @ 0xE0001004) (0009ms, 0849ms total)
T0434 003:608 JLINK_IsHalted()  returns TRUE (0004ms, 0853ms total)
T0434 003:612 JLINK_Halt()  returns 0x00 (0000ms, 0849ms total)
T0434 003:612 JLINK_IsHalted()  returns TRUE (0000ms, 0849ms total)
T0434 003:612 JLINK_IsHalted()  returns TRUE (0000ms, 0849ms total)
T0434 003:612 JLINK_IsHalted()  returns TRUE (0000ms, 0849ms total)
T0434 003:612 JLINK_ReadReg(R15 (PC))  returns 0x08000DE8 (0000ms, 0849ms total)
T0434 003:612 JLINK_ReadReg(XPSR)  returns 0x61000000 (0000ms, 0849ms total)
T0434 003:612 JLINK_ClrBPEx(BPHandle = 0x0000000A)  returns 0x00 (0000ms, 0849ms total)
T0434 003:612 JLINK_ClrBPEx(BPHandle = 0x0000000B)  returns 0x00 (0000ms, 0849ms total)
T0434 003:612 JLINK_ClrBPEx(BPHandle = 0x0000000C)  returns 0x00 (0000ms, 0849ms total)
T0434 003:613 JLINK_ClrBPEx(BPHandle = 0x0000000D)  returns 0x00 (0000ms, 0850ms total)
T0434 003:613 JLINK_ReadMemU32(0xE000ED30, 0x0001 Items, ...) -- CPU_ReadMem(4 bytes @ 0xE000ED30) - Data: 03 00 00 00  returns 0x01 (0001ms, 0851ms total)
T0434 003:614 JLINK_ReadMemU32(0xE0001028, 0x0001 Items, ...) -- CPU_ReadMem(4 bytes @ 0xE0001028) - Data: 00 00 00 00  returns 0x01 (0001ms, 0852ms total)
T0434 003:615 JLINK_ReadMemU32(0xE0001038, 0x0001 Items, ...) -- CPU_ReadMem(4 bytes @ 0xE0001038) - Data: 00 02 00 00  returns 0x01 (0001ms, 0853ms total)
T0434 003:616 JLINK_ReadMemU32(0xE0001048, 0x0001 Items, ...) -- CPU_ReadMem(4 bytes @ 0xE0001048) - Data: 00 00 00 00  returns 0x01 (0001ms, 0854ms total)
T0434 003:617 JLINK_ReadMemU32(0xE0001058, 0x0001 Items, ...) -- CPU_ReadMem(4 bytes @ 0xE0001058) - Data: 00 00 00 00  returns 0x01 (0001ms, 0855ms total)
T0434 003:618 JLINK_ReadReg(R0)  returns 0x00000001 (0000ms, 0855ms total)
T0434 003:618 JLINK_ReadReg(R1)  returns 0x20000004 (0000ms, 0855ms total)
T0434 003:618 JLINK_ReadReg(R2)  returns 0x0000001F (0000ms, 0855ms total)
T0434 003:618 JLINK_ReadReg(R3)  returns 0x40006C10 (0000ms, 0855ms total)
T0434 003:618 JLINK_ReadReg(R4)  returns 0x08002F04 (0000ms, 0855ms total)
T0434 003:618 JLINK_ReadReg(R5)  returns 0x08002F04 (0000ms, 0855ms total)
T0434 003:618 JLINK_ReadReg(R6)  returns 0x00000000 (0000ms, 0855ms total)
T0434 003:618 JLINK_ReadReg(R7)  returns 0x00000000 (0000ms, 0855ms total)
T0434 003:619 JLINK_ReadReg(R8)  returns 0x00000000 (0000ms, 0856ms total)
T0434 003:619 JLINK_ReadReg(R9)  returns 0x20000160 (0000ms, 0856ms total)
T0434 003:619 JLINK_ReadReg(R10)  returns 0x00000000 (0000ms, 0856ms total)
T0434 003:619 JLINK_ReadReg(R11)  returns 0x00000000 (0000ms, 0856ms total)
T0434 003:619 JLINK_ReadReg(R12)  returns 0x0000000A (0000ms, 0856ms total)
T0434 003:619 JLINK_ReadReg(R13 (SP))  returns 0x20000870 (0000ms, 0856ms total)
T0434 003:619 JLINK_ReadReg(R14)  returns 0x08000DE5 (0000ms, 0856ms total)
T0434 003:619 JLINK_ReadReg(R15 (PC))  returns 0x08000DE8 (0000ms, 0856ms total)
T0434 003:619 JLINK_ReadReg(XPSR)  returns 0x61000000 (0000ms, 0856ms total)
T0434 003:619 JLINK_ReadReg(MSP)  returns 0x20000870 (0000ms, 0856ms total)
T0434 003:619 JLINK_ReadReg(PSP)  returns 0x20001000 (0000ms, 0856ms total)
T0434 003:619 JLINK_ReadReg(CFBP)  returns 0x00000001 (0000ms, 0856ms total)
T177C 003:621 JLINK_ReadMem (0x2000087C, 0x0004 Bytes, ...) -- CPU_ReadMem(64 bytes @ 0x20000840) -- Updating C cache (64 bytes @ 0x20000840) -- Read from C cache (4 bytes @ 0x2000087C) - Data: 37 2D 00 08  returns 0x00 (0002ms, 0858ms total)
T177C 003:623 JLINK_ReadMem (0x20000878, 0x0004 Bytes, ...) -- Read from C cache (4 bytes @ 0x20000878) - Data: 04 2F 00 08  returns 0x00 (0000ms, 0858ms total)
T177C 003:623 JLINK_ReadMem (0x20000884, 0x0004 Bytes, ...) -- CPU_ReadMem(64 bytes @ 0x20000880) -- Updating C cache (64 bytes @ 0x20000880) -- Read from C cache (4 bytes @ 0x20000884) - Data: BF 0D 00 08  returns 0x00 (0002ms, 0860ms total)
T177C 003:625 JLINK_ReadMem (0x20000880, 0x0004 Bytes, ...) -- Read from C cache (4 bytes @ 0x20000880) - Data: 04 2F 00 08  returns 0x00 (0000ms, 0860ms total)
T177C 003:625 JLINK_ReadMem (0x2000088C, 0x0004 Bytes, ...) -- Read from C cache (4 bytes @ 0x2000088C) - Data: 71 02 00 08  returns 0x00 (0000ms, 0860ms total)
T177C 003:628 JLINK_ReadMem (0x2000047C, 0x0339 Bytes, ...) -- CPU_ReadMem(896 bytes @ 0x20000440) -- Updating C cache (896 bytes @ 0x20000440) -- Read from C cache (825 bytes @ 0x2000047C) - Data: 7C 04 00 20 7C 04 00 20 88 01 00 20 88 01 00 20 ...  returns 0x00 (0010ms, 0870ms total)
T177C 003:643 JLINK_ReadMem (0x08000DDE, 0x0002 Bytes, ...) -- CPU_ReadMem(64 bytes @ 0x08000DC0) -- Updating C cache (64 bytes @ 0x08000DC0) -- Read from C cache (2 bytes @ 0x08000DDE) - Data: 10 20  returns 0x00 (0001ms, 0871ms total)
T177C 003:644 JLINK_ReadMem (0x08000DE0, 0x003C Bytes, ...) -- CPU_ReadMem(64 bytes @ 0x08000E00) -- Updating C cache (64 bytes @ 0x08000E00) -- Read from C cache (60 bytes @ 0x08000DE0) - Data: FF F7 86 FA 13 49 48 70 02 20 10 49 48 70 01 20 ...  returns 0x00 (0002ms, 0873ms total)
T0434 004:090 JLINK_Step() -- Read from C cache (2 bytes @ 0x08000DE8) -- CPU_ReadMem(4 bytes @ 0xE0001004) -- Simulated  returns 0x00 (0001ms, 0874ms total)
T0434 004:091 JLINK_ReadReg(R15 (PC))  returns 0x08000DEA (0000ms, 0874ms total)
T0434 004:091 JLINK_ReadReg(XPSR)  returns 0x21000000 (0000ms, 0874ms total)
T0434 004:091 JLINK_SetBPEx(Addr = 0x08002A7A, Type = 0xFFFFFFF2)  returns 0x0000000E (0000ms, 0874ms total)
T0434 004:091 JLINK_SetBPEx(Addr = 0x08000BF0, Type = 0xFFFFFFF2)  returns 0x0000000F (0000ms, 0874ms total)
T0434 004:091 JLINK_SetBPEx(Addr = 0x08000CD8, Type = 0xFFFFFFF2)  returns 0x00000010 (0000ms, 0874ms total)
T0434 004:091 JLINK_SetBPEx(Addr = 0x08000DE8, Type = 0xFFFFFFF2)  returns 0x00000011 (0000ms, 0874ms total)
T0434 004:091 JLINK_Go() -- CPU_WriteMem(4 bytes @ 0xE0002000) -- CPU_WriteMem(4 bytes @ 0xE0002000) -- CPU_WriteMem(4 bytes @ 0xE0002000) -- CPU_WriteMem(4 bytes @ 0xE0002000) -- CPU_ReadMem(4 bytes @ 0xE0001000) -- CPU_WriteMem(4 bytes @ 0xE0001004) (0008ms, 0882ms total)
T0434 004:199 JLINK_IsHalted()  returns TRUE (0004ms, 0886ms total)
T0434 004:203 JLINK_Halt()  returns 0x00 (0000ms, 0882ms total)
T0434 004:203 JLINK_IsHalted()  returns TRUE (0000ms, 0882ms total)
T0434 004:203 JLINK_IsHalted()  returns TRUE (0000ms, 0882ms total)
T0434 004:203 JLINK_IsHalted()  returns TRUE (0000ms, 0882ms total)
T0434 004:203 JLINK_ReadReg(R15 (PC))  returns 0x08000BF0 (0000ms, 0882ms total)
T0434 004:203 JLINK_ReadReg(XPSR)  returns 0x61000000 (0000ms, 0882ms total)
T0434 004:203 JLINK_ClrBPEx(BPHandle = 0x0000000E)  returns 0x00 (0000ms, 0882ms total)
T0434 004:203 JLINK_ClrBPEx(BPHandle = 0x0000000F)  returns 0x00 (0000ms, 0882ms total)
T0434 004:203 JLINK_ClrBPEx(BPHandle = 0x00000010)  returns 0x00 (0000ms, 0882ms total)
T0434 004:203 JLINK_ClrBPEx(BPHandle = 0x00000011)  returns 0x00 (0001ms, 0883ms total)
T0434 004:204 JLINK_ReadMemU32(0xE000ED30, 0x0001 Items, ...) -- CPU_ReadMem(4 bytes @ 0xE000ED30) - Data: 03 00 00 00  returns 0x01 (0001ms, 0884ms total)
T0434 004:205 JLINK_ReadMemU32(0xE0001028, 0x0001 Items, ...) -- CPU_ReadMem(4 bytes @ 0xE0001028) - Data: 00 00 00 00  returns 0x01 (0001ms, 0885ms total)
T0434 004:206 JLINK_ReadMemU32(0xE0001038, 0x0001 Items, ...) -- CPU_ReadMem(4 bytes @ 0xE0001038) - Data: 00 02 00 00  returns 0x01 (0001ms, 0886ms total)
T0434 004:207 JLINK_ReadMemU32(0xE0001048, 0x0001 Items, ...) -- CPU_ReadMem(4 bytes @ 0xE0001048) - Data: 00 00 00 00  returns 0x01 (0001ms, 0887ms total)
T0434 004:208 JLINK_ReadMemU32(0xE0001058, 0x0001 Items, ...) -- CPU_ReadMem(4 bytes @ 0xE0001058) - Data: 00 00 00 00  returns 0x01 (0001ms, 0888ms total)
T0434 004:209 JLINK_ReadReg(R0)  returns 0x00000000 (0000ms, 0888ms total)
T0434 004:209 JLINK_ReadReg(R1)  returns 0x10000000 (0000ms, 0888ms total)
T0434 004:209 JLINK_ReadReg(R2)  returns 0x20000114 (0000ms, 0888ms total)
T0434 004:209 JLINK_ReadReg(R3)  returns 0x0000000A (0000ms, 0888ms total)
T0434 004:209 JLINK_ReadReg(R4)  returns 0xDEADBEEF (0000ms, 0888ms total)
T0434 004:209 JLINK_ReadReg(R5)  returns 0xDEADBEEF (0000ms, 0888ms total)
T0434 004:209 JLINK_ReadReg(R6)  returns 0xDEADBEEF (0000ms, 0888ms total)
T0434 004:210 JLINK_ReadReg(R7)  returns 0xDEADBEEF (0000ms, 0888ms total)
T0434 004:210 JLINK_ReadReg(R8)  returns 0xDEADBEEF (0000ms, 0888ms total)
T0434 004:210 JLINK_ReadReg(R9)  returns 0xDEADBEEF (0000ms, 0888ms total)
T0434 004:210 JLINK_ReadReg(R10)  returns 0xDEADBEEF (0000ms, 0888ms total)
T0434 004:210 JLINK_ReadReg(R11)  returns 0xDEADBEEF (0000ms, 0888ms total)
T0434 004:210 JLINK_ReadReg(R12)  returns 0x00000000 (0000ms, 0888ms total)
T0434 004:210 JLINK_ReadReg(R13 (SP))  returns 0x20000B20 (0000ms, 0888ms total)
T0434 004:210 JLINK_ReadReg(R14)  returns 0x08001D9B (0000ms, 0888ms total)
T0434 004:210 JLINK_ReadReg(R15 (PC))  returns 0x08000BF0 (0000ms, 0888ms total)
T0434 004:210 JLINK_ReadReg(XPSR)  returns 0x61000000 (0000ms, 0888ms total)
T0434 004:210 JLINK_ReadReg(MSP)  returns 0x20000870 (0000ms, 0888ms total)
T0434 004:210 JLINK_ReadReg(PSP)  returns 0x20000B20 (0000ms, 0888ms total)
T0434 004:210 JLINK_ReadReg(CFBP)  returns 0x02000000 (0000ms, 0888ms total)
T177C 004:211 JLINK_ReadMem (0x00000000, 0x0004 Bytes, ...) -- CPU_ReadMem(4 bytes @ 0x00000004) -- CPU_ReadMem(64 bytes @ 0x08000000) -- Updating C cache (64 bytes @ 0x08000000) -- Read from C cache (4 bytes @ 0x08000000) - Data: 90 08 00 20  returns 0x00 (0004ms, 0892ms total)
T177C 004:218 JLINK_ReadMem (0x2000047C, 0x0339 Bytes, ...) -- CPU_ReadMem(896 bytes @ 0x20000440) -- Updating C cache (896 bytes @ 0x20000440) -- Read from C cache (825 bytes @ 0x2000047C) - Data: 7C 04 00 20 7C 04 00 20 88 01 00 20 88 01 00 20 ...  returns 0x00 (0010ms, 0902ms total)
T177C 004:237 JLINK_ReadMem (0x08000BEA, 0x0002 Bytes, ...) -- CPU_ReadMem(64 bytes @ 0x08000BC0) -- Updating C cache (64 bytes @ 0x08000BC0) -- Read from C cache (2 bytes @ 0x08000BEA) - Data: 0A 20  returns 0x00 (0001ms, 0903ms total)
T177C 004:238 JLINK_ReadMem (0x08000BEC, 0x0014 Bytes, ...) -- Read from C cache (20 bytes @ 0x08000BEC) - Data: 01 F0 1D FB 56 48 40 78 00 28 0D DD 00 BF 04 21 ...  returns 0x00 (0000ms, 0903ms total)
T177C 004:238 JLINK_ReadMem (0x08000C00, 0x0028 Bytes, ...) -- CPU_ReadMem(64 bytes @ 0x08000C00) -- Updating C cache (64 bytes @ 0x08000C00) -- Read from C cache (40 bytes @ 0x08000C00) - Data: 3A FC 00 BF 51 48 00 78 20 F0 02 00 80 1C 4F 49 ...  returns 0x00 (0002ms, 0905ms total)
T0434 004:715 JLINK_Step() -- Read from C cache (2 bytes @ 0x08000BF0) -- CPU_ReadMem(4 bytes @ 0xE0001004) -- CPU_ReadMem(64 bytes @ 0x08000D40) -- Updating C cache (64 bytes @ 0x08000D40) -- Read from C cache (4 bytes @ 0x08000D4C) -- Simulated  returns 0x00 (0004ms, 0909ms total)
T0434 004:719 JLINK_ReadReg(R15 (PC))  returns 0x08000BF2 (0000ms, 0909ms total)
T0434 004:719 JLINK_ReadReg(XPSR)  returns 0x61000000 (0000ms, 0909ms total)
T0434 004:719 JLINK_SetBPEx(Addr = 0x08002A7A, Type = 0xFFFFFFF2)  returns 0x00000012 (0000ms, 0909ms total)
T0434 004:719 JLINK_SetBPEx(Addr = 0x08000BF0, Type = 0xFFFFFFF2)  returns 0x00000013 (0000ms, 0909ms total)
T0434 004:719 JLINK_SetBPEx(Addr = 0x08000CD8, Type = 0xFFFFFFF2)  returns 0x00000014 (0000ms, 0909ms total)
T0434 004:719 JLINK_SetBPEx(Addr = 0x08000DE8, Type = 0xFFFFFFF2)  returns 0x00000015 (0000ms, 0909ms total)
T0434 004:719 JLINK_Go() -- CPU_WriteMem(4 bytes @ 0xE0002000) -- CPU_WriteMem(4 bytes @ 0xE0002000) -- CPU_WriteMem(4 bytes @ 0xE0002000) -- CPU_WriteMem(4 bytes @ 0xE0002000) -- CPU_ReadMem(4 bytes @ 0xE0001000) -- CPU_WriteMem(4 bytes @ 0xE0001004) (0008ms, 0917ms total)
T0434 004:827 JLINK_IsHalted()  returns FALSE (0001ms, 0918ms total)
T0434 004:928 JLINK_IsHalted()  returns FALSE (0001ms, 0918ms total)
T0434 005:029 JLINK_IsHalted()  returns FALSE (0001ms, 0918ms total)
T0434 005:130 JLINK_IsHalted()  returns FALSE (0001ms, 0918ms total)
T0434 005:231 JLINK_IsHalted()  returns TRUE (0003ms, 0920ms total)
T0434 005:234 JLINK_Halt()  returns 0x00 (0000ms, 0917ms total)
T0434 005:234 JLINK_IsHalted()  returns TRUE (0000ms, 0917ms total)
T0434 005:234 JLINK_IsHalted()  returns TRUE (0000ms, 0917ms total)
T0434 005:234 JLINK_IsHalted()  returns TRUE (0000ms, 0917ms total)
T0434 005:234 JLINK_ReadReg(R15 (PC))  returns 0x08000CD8 (0000ms, 0917ms total)
T0434 005:234 JLINK_ReadReg(XPSR)  returns 0x21000000 (0000ms, 0917ms total)
T0434 005:234 JLINK_ClrBPEx(BPHandle = 0x00000012)  returns 0x00 (0000ms, 0917ms total)
T0434 005:234 JLINK_ClrBPEx(BPHandle = 0x00000013)  returns 0x00 (0000ms, 0917ms total)
T0434 005:234 JLINK_ClrBPEx(BPHandle = 0x00000014)  returns 0x00 (0000ms, 0917ms total)
T0434 005:234 JLINK_ClrBPEx(BPHandle = 0x00000015)  returns 0x00 (0000ms, 0917ms total)
T0434 005:234 JLINK_ReadMemU32(0xE000ED30, 0x0001 Items, ...) -- CPU_ReadMem(4 bytes @ 0xE000ED30) - Data: 03 00 00 00  returns 0x01 (0001ms, 0918ms total)
T0434 005:235 JLINK_ReadMemU32(0xE0001028, 0x0001 Items, ...) -- CPU_ReadMem(4 bytes @ 0xE0001028) - Data: 00 00 00 00  returns 0x01 (0001ms, 0919ms total)
T0434 005:236 JLINK_ReadMemU32(0xE0001038, 0x0001 Items, ...) -- CPU_ReadMem(4 bytes @ 0xE0001038) - Data: 00 02 00 00  returns 0x01 (0001ms, 0920ms total)
T0434 005:237 JLINK_ReadMemU32(0xE0001048, 0x0001 Items, ...) -- CPU_ReadMem(4 bytes @ 0xE0001048) - Data: 00 00 00 00  returns 0x01 (0001ms, 0921ms total)
T0434 005:238 JLINK_ReadMemU32(0xE0001058, 0x0001 Items, ...) -- CPU_ReadMem(4 bytes @ 0xE0001058) - Data: 00 00 00 00  returns 0x01 (0001ms, 0922ms total)
T0434 005:239 JLINK_ReadReg(R0)  returns 0x40010800 (0000ms, 0922ms total)
T0434 005:239 JLINK_ReadReg(R1)  returns 0x00000001 (0000ms, 0922ms total)
T0434 005:239 JLINK_ReadReg(R2)  returns 0x40010C00 (0000ms, 0922ms total)
T0434 005:239 JLINK_ReadReg(R3)  returns 0x00000200 (0000ms, 0922ms total)
T0434 005:239 JLINK_ReadReg(R4)  returns 0xDEADBEEF (0000ms, 0922ms total)
T0434 005:239 JLINK_ReadReg(R5)  returns 0xDEADBEEF (0000ms, 0922ms total)
T0434 005:239 JLINK_ReadReg(R6)  returns 0xDEADBEEF (0000ms, 0922ms total)
T0434 005:239 JLINK_ReadReg(R7)  returns 0xDEADBEEF (0000ms, 0922ms total)
T0434 005:239 JLINK_ReadReg(R8)  returns 0xDEADBEEF (0001ms, 0923ms total)
T0434 005:240 JLINK_ReadReg(R9)  returns 0xDEADBEEF (0000ms, 0923ms total)
T0434 005:240 JLINK_ReadReg(R10)  returns 0xDEADBEEF (0000ms, 0923ms total)
T0434 005:240 JLINK_ReadReg(R11)  returns 0xDEADBEEF (0000ms, 0923ms total)
T0434 005:240 JLINK_ReadReg(R12)  returns 0x00000000 (0000ms, 0923ms total)
T0434 005:240 JLINK_ReadReg(R13 (SP))  returns 0x20000B20 (0000ms, 0923ms total)
T0434 005:240 JLINK_ReadReg(R14)  returns 0x08000333 (0000ms, 0923ms total)
T0434 005:240 JLINK_ReadReg(R15 (PC))  returns 0x08000CD8 (0000ms, 0923ms total)
T0434 005:240 JLINK_ReadReg(XPSR)  returns 0x21000000 (0000ms, 0923ms total)
T0434 005:240 JLINK_ReadReg(MSP)  returns 0x20000870 (0000ms, 0923ms total)
T0434 005:240 JLINK_ReadReg(PSP)  returns 0x20000B20 (0000ms, 0923ms total)
T0434 005:240 JLINK_ReadReg(CFBP)  returns 0x02000000 (0000ms, 0923ms total)
T177C 005:240 JLINK_ReadMem (0x00000000, 0x0004 Bytes, ...) -- CPU_ReadMem(4 bytes @ 0x00000004) -- CPU_ReadMem(64 bytes @ 0x08000000) -- Updating C cache (64 bytes @ 0x08000000) -- Read from C cache (4 bytes @ 0x08000000) - Data: 90 08 00 20  returns 0x00 (0002ms, 0925ms total)
T177C 005:243 JLINK_ReadMem (0x2000047C, 0x0339 Bytes, ...) -- CPU_ReadMem(896 bytes @ 0x20000440) -- Updating C cache (896 bytes @ 0x20000440) -- Read from C cache (825 bytes @ 0x2000047C) - Data: 7C 04 00 20 7C 04 00 20 88 01 00 20 88 01 00 20 ...  returns 0x00 (0010ms, 0935ms total)
T177C 005:257 JLINK_ReadMem (0x08000CD4, 0x003C Bytes, ...) -- CPU_ReadMem(128 bytes @ 0x08000CC0) -- Updating C cache (128 bytes @ 0x08000CC0) -- Read from C cache (60 bytes @ 0x08000CD4) - Data: FF F7 28 FB 00 BF 4F F4 00 51 1F 48 FF F7 C9 FB ...  returns 0x00 (0002ms, 0937ms total)
T0434 005:636 JLINK_Step() -- Read from C cache (2 bytes @ 0x08000CD8) -- CPU_ReadMem(4 bytes @ 0xE0001004) -- Simulated  returns 0x00 (0002ms, 0939ms total)
T0434 005:638 JLINK_ReadReg(R15 (PC))  returns 0x08000CDA (0000ms, 0939ms total)
T0434 005:638 JLINK_ReadReg(XPSR)  returns 0x21000000 (0000ms, 0939ms total)
T0434 005:638 JLINK_SetBPEx(Addr = 0x08002A7A, Type = 0xFFFFFFF2)  returns 0x00000016 (0000ms, 0939ms total)
T0434 005:638 JLINK_SetBPEx(Addr = 0x08000BF0, Type = 0xFFFFFFF2)  returns 0x00000017 (0000ms, 0939ms total)
T0434 005:638 JLINK_SetBPEx(Addr = 0x08000CD8, Type = 0xFFFFFFF2)  returns 0x00000018 (0000ms, 0939ms total)
T0434 005:638 JLINK_SetBPEx(Addr = 0x08000DE8, Type = 0xFFFFFFF2)  returns 0x00000019 (0000ms, 0939ms total)
T0434 005:638 JLINK_Go() -- CPU_WriteMem(4 bytes @ 0xE0002000) -- CPU_WriteMem(4 bytes @ 0xE0002000) -- CPU_WriteMem(4 bytes @ 0xE0002000) -- CPU_WriteMem(4 bytes @ 0xE0002000) -- CPU_ReadMem(4 bytes @ 0xE0001000) -- CPU_WriteMem(4 bytes @ 0xE0001004) (0009ms, 0948ms total)
T0434 005:747 JLINK_IsHalted()  returns FALSE (0001ms, 0949ms total)
T0434 005:848 JLINK_IsHalted()  returns FALSE (0001ms, 0949ms total)
T0434 005:949 JLINK_IsHalted()  returns FALSE (0001ms, 0949ms total)
T0434 006:050 JLINK_IsHalted()  returns FALSE (0001ms, 0949ms total)
T0434 006:151 JLINK_IsHalted()  returns FALSE (0001ms, 0949ms total)
T0434 006:252 JLINK_ReadMemU32(0xE0001004, 0x0001 Items, ...) -- CPU is running -- CPU_ReadMem(4 bytes @ 0xE0001004) - Data: 25 82 26 05  returns 0x01 (0001ms, 0949ms total)
T177C 006:253 JLINK_ReadMem (0x2000047C, 0x0339 Bytes, ...) -- CPU is running -- CPU_ReadMem(825 bytes @ 0x2000047C) - Data: 7C 04 00 20 7C 04 00 20 88 01 00 20 88 01 00 20 ...  returns 0x00 (0009ms, 0958ms total)
T0434 006:264 JLINK_IsHalted()  returns TRUE (0004ms, 0962ms total)
T0434 006:268 JLINK_Halt()  returns 0x00 (0000ms, 0958ms total)
T0434 006:268 JLINK_IsHalted()  returns TRUE (0000ms, 0958ms total)
T0434 006:268 JLINK_IsHalted()  returns TRUE (0000ms, 0958ms total)
T0434 006:268 JLINK_IsHalted()  returns TRUE (0000ms, 0958ms total)
T0434 006:268 JLINK_ReadReg(R15 (PC))  returns 0x08000CD8 (0000ms, 0958ms total)
T0434 006:268 JLINK_ReadReg(XPSR)  returns 0x21000000 (0000ms, 0958ms total)
T0434 006:268 JLINK_ClrBPEx(BPHandle = 0x00000016)  returns 0x00 (0000ms, 0958ms total)
T0434 006:268 JLINK_ClrBPEx(BPHandle = 0x00000017)  returns 0x00 (0000ms, 0958ms total)
T0434 006:268 JLINK_ClrBPEx(BPHandle = 0x00000018)  returns 0x00 (0000ms, 0958ms total)
T0434 006:268 JLINK_ClrBPEx(BPHandle = 0x00000019)  returns 0x00 (0000ms, 0958ms total)
T0434 006:268 JLINK_ReadMemU32(0xE000ED30, 0x0001 Items, ...) -- CPU_ReadMem(4 bytes @ 0xE000ED30) - Data: 03 00 00 00  returns 0x01 (0001ms, 0959ms total)
T0434 006:269 JLINK_ReadMemU32(0xE0001028, 0x0001 Items, ...) -- CPU_ReadMem(4 bytes @ 0xE0001028) - Data: 00 00 00 00  returns 0x01 (0001ms, 0960ms total)
T0434 006:270 JLINK_ReadMemU32(0xE0001038, 0x0001 Items, ...) -- CPU_ReadMem(4 bytes @ 0xE0001038) - Data: 00 02 00 00  returns 0x01 (0001ms, 0961ms total)
T0434 006:271 JLINK_ReadMemU32(0xE0001048, 0x0001 Items, ...) -- CPU_ReadMem(4 bytes @ 0xE0001048) - Data: 00 00 00 00  returns 0x01 (0001ms, 0962ms total)
T0434 006:272 JLINK_ReadMemU32(0xE0001058, 0x0001 Items, ...) -- CPU_ReadMem(4 bytes @ 0xE0001058) - Data: 00 00 00 00  returns 0x01 (0001ms, 0963ms total)
T0434 006:273 JLINK_ReadReg(R0)  returns 0x40010800 (0000ms, 0963ms total)
T0434 006:273 JLINK_ReadReg(R1)  returns 0x00000001 (0001ms, 0964ms total)
T0434 006:274 JLINK_ReadReg(R2)  returns 0x40010C00 (0000ms, 0964ms total)
T0434 006:274 JLINK_ReadReg(R3)  returns 0x00000200 (0000ms, 0964ms total)
T0434 006:274 JLINK_ReadReg(R4)  returns 0xDEADBEEF (0000ms, 0964ms total)
T0434 006:274 JLINK_ReadReg(R5)  returns 0xDEADBEEF (0000ms, 0964ms total)
T0434 006:274 JLINK_ReadReg(R6)  returns 0xDEADBEEF (0000ms, 0964ms total)
T0434 006:274 JLINK_ReadReg(R7)  returns 0xDEADBEEF (0000ms, 0964ms total)
T0434 006:274 JLINK_ReadReg(R8)  returns 0xDEADBEEF (0000ms, 0964ms total)
T0434 006:274 JLINK_ReadReg(R9)  returns 0xDEADBEEF (0000ms, 0964ms total)
T0434 006:274 JLINK_ReadReg(R10)  returns 0xDEADBEEF (0000ms, 0964ms total)
T0434 006:274 JLINK_ReadReg(R11)  returns 0xDEADBEEF (0000ms, 0964ms total)
T0434 006:274 JLINK_ReadReg(R12)  returns 0x00000000 (0000ms, 0964ms total)
T0434 006:274 JLINK_ReadReg(R13 (SP))  returns 0x20000B20 (0000ms, 0964ms total)
T0434 006:274 JLINK_ReadReg(R14)  returns 0x08000333 (0000ms, 0964ms total)
T0434 006:274 JLINK_ReadReg(R15 (PC))  returns 0x08000CD8 (0000ms, 0964ms total)
T0434 006:274 JLINK_ReadReg(XPSR)  returns 0x21000000 (0000ms, 0964ms total)
T0434 006:274 JLINK_ReadReg(MSP)  returns 0x20000870 (0000ms, 0964ms total)
T0434 006:275 JLINK_ReadReg(PSP)  returns 0x20000B20 (0000ms, 0965ms total)
T0434 006:275 JLINK_ReadReg(CFBP)  returns 0x02000000 (0000ms, 0965ms total)
T177C 006:276 JLINK_ReadMem (0x00000000, 0x0004 Bytes, ...) -- CPU_ReadMem(4 bytes @ 0x00000004) -- CPU_ReadMem(64 bytes @ 0x08000000) -- Updating C cache (64 bytes @ 0x08000000) -- Read from C cache (4 bytes @ 0x08000000) - Data: 90 08 00 20  returns 0x00 (0003ms, 0968ms total)
T177C 006:281 JLINK_ReadMem (0x2000047C, 0x0339 Bytes, ...) -- CPU_ReadMem(896 bytes @ 0x20000440) -- Updating C cache (896 bytes @ 0x20000440) -- Read from C cache (825 bytes @ 0x2000047C) - Data: 7C 04 00 20 7C 04 00 20 88 01 00 20 88 01 00 20 ...  returns 0x00 (0010ms, 0978ms total)
T0434 006:742 JLINK_Step() -- CPU_ReadMem(64 bytes @ 0x08000CC0) -- Updating C cache (64 bytes @ 0x08000CC0) -- Read from C cache (2 bytes @ 0x08000CD8) -- CPU_ReadMem(4 bytes @ 0xE0001004) -- Simulated  returns 0x00 (0003ms, 0981ms total)
T0434 006:745 JLINK_ReadReg(R15 (PC))  returns 0x08000CDA (0000ms, 0981ms total)
T0434 006:745 JLINK_ReadReg(XPSR)  returns 0x21000000 (0000ms, 0981ms total)
T0434 006:745 JLINK_SetBPEx(Addr = 0x08002A7A, Type = 0xFFFFFFF2)  returns 0x0000001A (0000ms, 0981ms total)
T0434 006:745 JLINK_SetBPEx(Addr = 0x08000BF0, Type = 0xFFFFFFF2)  returns 0x0000001B (0000ms, 0981ms total)
T0434 006:745 JLINK_SetBPEx(Addr = 0x08000CD8, Type = 0xFFFFFFF2)  returns 0x0000001C (0000ms, 0981ms total)
T0434 006:745 JLINK_SetBPEx(Addr = 0x08000DE8, Type = 0xFFFFFFF2)  returns 0x0000001D (0000ms, 0981ms total)
T0434 006:745 JLINK_Go() -- CPU_WriteMem(4 bytes @ 0xE0002000) -- CPU_WriteMem(4 bytes @ 0xE0002000) -- CPU_WriteMem(4 bytes @ 0xE0002000) -- CPU_WriteMem(4 bytes @ 0xE0002000) -- CPU_ReadMem(4 bytes @ 0xE0001000) -- CPU_WriteMem(4 bytes @ 0xE0001004) (0008ms, 0989ms total)
T0434 006:853 JLINK_IsHalted()  returns FALSE (0001ms, 0990ms total)
T0434 006:954 JLINK_IsHalted()  returns FALSE (0001ms, 0990ms total)
T0434 007:055 JLINK_IsHalted()  returns FALSE (0001ms, 0990ms total)
T0434 007:156 JLINK_IsHalted()  returns FALSE (0001ms, 0990ms total)
T0434 007:257 JLINK_ReadMemU32(0xE0001004, 0x0001 Items, ...) -- CPU is running -- CPU_ReadMem(4 bytes @ 0xE0001004) - Data: DD 7B 50 07  returns 0x01 (0001ms, 0990ms total)
T177C 007:258 JLINK_ReadMem (0x2000047C, 0x0339 Bytes, ...) -- CPU is running -- CPU_ReadMem(825 bytes @ 0x2000047C) - Data: 7C 04 00 20 7C 04 00 20 88 01 00 20 88 01 00 20 ...  returns 0x00 (0010ms, 1000ms total)
T0434 007:276 JLINK_IsHalted()  returns FALSE (0001ms, 1001ms total)
T0434 007:377 JLINK_IsHalted()  returns TRUE (0004ms, 1004ms total)
T0434 007:381 JLINK_Halt()  returns 0x00 (0000ms, 1000ms total)
T0434 007:381 JLINK_IsHalted()  returns TRUE (0000ms, 1000ms total)
T0434 007:381 JLINK_IsHalted()  returns TRUE (0000ms, 1000ms total)
T0434 007:381 JLINK_IsHalted()  returns TRUE (0000ms, 1000ms total)
T0434 007:381 JLINK_ReadReg(R15 (PC))  returns 0x08000CD8 (0000ms, 1000ms total)
T0434 007:381 JLINK_ReadReg(XPSR)  returns 0x21000000 (0000ms, 1000ms total)
T0434 007:381 JLINK_ClrBPEx(BPHandle = 0x0000001A)  returns 0x00 (0000ms, 1000ms total)
T0434 007:381 JLINK_ClrBPEx(BPHandle = 0x0000001B)  returns 0x00 (0001ms, 1001ms total)
T0434 007:382 JLINK_ClrBPEx(BPHandle = 0x0000001C)  returns 0x00 (0000ms, 1001ms total)
T0434 007:382 JLINK_ClrBPEx(BPHandle = 0x0000001D)  returns 0x00 (0000ms, 1001ms total)
T0434 007:382 JLINK_ReadMemU32(0xE000ED30, 0x0001 Items, ...) -- CPU_ReadMem(4 bytes @ 0xE000ED30) - Data: 03 00 00 00  returns 0x01 (0001ms, 1002ms total)
T0434 007:383 JLINK_ReadMemU32(0xE0001028, 0x0001 Items, ...) -- CPU_ReadMem(4 bytes @ 0xE0001028) - Data: 00 00 00 00  returns 0x01 (0001ms, 1003ms total)
T0434 007:384 JLINK_ReadMemU32(0xE0001038, 0x0001 Items, ...) -- CPU_ReadMem(4 bytes @ 0xE0001038) - Data: 00 02 00 00  returns 0x01 (0001ms, 1004ms total)
T0434 007:385 JLINK_ReadMemU32(0xE0001048, 0x0001 Items, ...) -- CPU_ReadMem(4 bytes @ 0xE0001048) - Data: 00 00 00 00  returns 0x01 (0001ms, 1005ms total)
T0434 007:386 JLINK_ReadMemU32(0xE0001058, 0x0001 Items, ...) -- CPU_ReadMem(4 bytes @ 0xE0001058) - Data: 00 00 00 00  returns 0x01 (0001ms, 1006ms total)
T0434 007:387 JLINK_ReadReg(R0)  returns 0x40010800 (0000ms, 1006ms total)
T0434 007:387 JLINK_ReadReg(R1)  returns 0x00000001 (0000ms, 1006ms total)
T0434 007:387 JLINK_ReadReg(R2)  returns 0x40010C00 (0000ms, 1006ms total)
T0434 007:387 JLINK_ReadReg(R3)  returns 0x00000200 (0000ms, 1006ms total)
T0434 007:387 JLINK_ReadReg(R4)  returns 0xDEADBEEF (0001ms, 1007ms total)
T0434 007:388 JLINK_ReadReg(R5)  returns 0xDEADBEEF (0000ms, 1007ms total)
T0434 007:388 JLINK_ReadReg(R6)  returns 0xDEADBEEF (0000ms, 1007ms total)
T0434 007:388 JLINK_ReadReg(R7)  returns 0xDEADBEEF (0000ms, 1007ms total)
T0434 007:388 JLINK_ReadReg(R8)  returns 0xDEADBEEF (0000ms, 1007ms total)
T0434 007:388 JLINK_ReadReg(R9)  returns 0xDEADBEEF (0000ms, 1007ms total)
T0434 007:388 JLINK_ReadReg(R10)  returns 0xDEADBEEF (0000ms, 1007ms total)
T0434 007:388 JLINK_ReadReg(R11)  returns 0xDEADBEEF (0000ms, 1007ms total)
T0434 007:388 JLINK_ReadReg(R12)  returns 0x00000000 (0000ms, 1007ms total)
T0434 007:388 JLINK_ReadReg(R13 (SP))  returns 0x20000B20 (0000ms, 1007ms total)
T0434 007:388 JLINK_ReadReg(R14)  returns 0x08000333 (0000ms, 1007ms total)
T0434 007:388 JLINK_ReadReg(R15 (PC))  returns 0x08000CD8 (0000ms, 1007ms total)
T0434 007:388 JLINK_ReadReg(XPSR)  returns 0x21000000 (0000ms, 1007ms total)
T0434 007:388 JLINK_ReadReg(MSP)  returns 0x20000870 (0000ms, 1007ms total)
T0434 007:388 JLINK_ReadReg(PSP)  returns 0x20000B20 (0000ms, 1007ms total)
T0434 007:388 JLINK_ReadReg(CFBP)  returns 0x02000000 (0000ms, 1007ms total)
T177C 007:389 JLINK_ReadMem (0x00000000, 0x0004 Bytes, ...) -- CPU_ReadMem(4 bytes @ 0x00000004) -- CPU_ReadMem(64 bytes @ 0x08000000) -- Updating C cache (64 bytes @ 0x08000000) -- Read from C cache (4 bytes @ 0x08000000) - Data: 90 08 00 20  returns 0x00 (0003ms, 1010ms total)
T177C 007:394 JLINK_ReadMem (0x2000047C, 0x0339 Bytes, ...) -- CPU_ReadMem(896 bytes @ 0x20000440) -- Updating C cache (896 bytes @ 0x20000440) -- Read from C cache (825 bytes @ 0x2000047C) - Data: 7C 04 00 20 7C 04 00 20 88 01 00 20 88 01 00 20 ...  returns 0x00 (0010ms, 1020ms total)
